
**** 05/15/26 09:46:32 *********** Evaluation PSpice (Nov 1999) **************

 Circuit 1


 ****     CIRCUIT DESCRIPTION


******************************************************************************



* Mocanu Cristian-Lucian, 314CB
VPOLARIZARE 1 0 12
R1 1 2 10
R2 2 0 10
R3 2 3 5
R4 1 3 5
*
.OP
.END

**** 05/15/26 09:46:32 *********** Evaluation PSpice (Nov 1999) **************

 Circuit 1


 ****     SMALL SIGNAL BIAS SOLUTION       TEMPERATURE =   27.000 DEG C


******************************************************************************



 NODE   VOLTAGE     NODE   VOLTAGE     NODE   VOLTAGE     NODE   VOLTAGE


(    1)   12.0000  (    2)    8.0000  (    3)   10.0000  




    VOLTAGE SOURCE CURRENTS
    NAME         CURRENT

    VPOLARIZARE  -8.000E-01

    TOTAL POWER DISSIPATION   9.60E+00  WATTS


**** 05/15/26 09:46:32 *********** Evaluation PSpice (Nov 1999) **************

 Circuit 1


 ****     OPERATING POINT INFORMATION      TEMPERATURE =   27.000 DEG C


******************************************************************************





          JOB CONCLUDED

          TOTAL JOB TIME            0.00

